
T17FC 000:038 SEGGER J-Link V4.68a Log File (0000ms, 0037ms total)
T17FC 000:038 DLL Compiled: Apr 12 2013 13:26:50 (0000ms, 0037ms total)
T17FC 000:038 Logging started @ 2018-02-12 14:36 (0000ms, 0037ms total)
T17FC 000:038 JLINK_SetWarnOutHandler(...) (0000ms, 0037ms total)
T17FC 000:038 JLINK_OpenEx(...)
Firmware: J-Link ARM-OB STM32 compiled Aug 22 2012 19:52:04
Hardware: V7.00
Feature(s): RDI,FlashDL,FlashBP,JFlash,GDBFull  returns O.K. (0023ms, 0060ms total)
T17FC 000:061 JLINK_SetErrorOutHandler(...) (0000ms, 0060ms total)
T17FC 000:061 JLINK_ExecCommand("ProjectFile = "C:\Users\Usuario\Desktop\Proyecto_web2\JLinkSettings.ini"", ...)  returns 0x00 (0000ms, 0060ms total)
T17FC 000:069 JLINK_ExecCommand("Device = LPC1768", ...)
                JLINK_AddMirrorAreaEx(Addr = 0x00000000, Size = 0x00000000) (0000ms, 0000ms total)
              Device "LPC1768" selected (512 KB flash, 32 KB RAM).  returns 0x00 (0007ms, 0067ms total)
T17FC 000:076 JLINK_ExecCommand("DisableConnectionTimeout", ...)  returns 0x00 (0000ms, 0067ms total)
T17FC 000:076 JLINK_GetHardwareVersion()  returns 0x11170 (0000ms, 0067ms total)
T17FC 000:076 JLINK_GetDLLVersion()  returns 46801 (0000ms, 0067ms total)
T17FC 000:076 JLINK_GetFirmwareString(...) (0000ms, 0067ms total)
T17FC 000:090 JLINK_GetDLLVersion()  returns 46801 (0000ms, 0067ms total)
T17FC 000:090 JLINK_GetCompileDateTime() (0000ms, 0067ms total)
T17FC 000:093 JLINK_GetFirmwareString(...) (0000ms, 0067ms total)
T17FC 000:095 JLINK_GetHardwareVersion()  returns 0x11170 (0000ms, 0067ms total)
T17FC 000:103 JLINK_TIF_Select(JLINKARM_TIF_JTAG)  returns 0x00 (0000ms, 0067ms total)
T17FC 000:103 JLINK_SetSpeed(10000) (0001ms, 0068ms total)
T17FC 000:104 JLINK_GetIdData(...) >0x2F8 JTAG>TotalIRLen = 4, IRPrint = 0x01 >0x30 JTAG> >0x210 JTAG> >0x78 JTAG> >0x40 JTAG> >0x40 JTAG> >0x48 JTAG> >0x40 JTAG> >0x40 JTAG> >0x40 JTAG> >0x48 JTAG> >0x40 JTAG> >0x40 JTAG> >0x40 JTAG> >0x30 JTAG> >0x40 JTAG> >0x48 JTAG> >0x40 JTAG> >0x30 JTAG> >0x78 JTAG> >0x40 JTAG> >0x40 JTAG> >0x48 JTAG> >0x40 JTAG> >0x40 JTAG> >0x40 JTAG> >0x48 JTAG> >0x40 JTAG> >0x40 JTAG> >0x30 JTAG> >0x40 JTAG> >0x40 JTAG> >0x40 JTAG> >0x40 JTAG> >0x40 JTAG> >0x48 JTAG>
 >0x40 JTAG> >0x78 JTAG> >0x40 JTAG> >0x30 JTAG> >0x40 JTAG> >0x40 JTAG> >0x40 JTAG> >0x40 JTAG> >0x40 JTAG> >0x48 JTAG> >0x40 JTAG> >0x78 JTAG> >0x40 JTAG> >0x30 JTAG> >0x40 JTAG> >0x48 JTAG> >0x40 JTAG> >0x40 JTAG> >0x40 JTAG> >0x30 JTAG> >0x40 JTAG> >0x48 JTAG> >0x40 JTAG>Found Cortex-M3 r2p0, Little endian. >0x48 JTAG> >0x48 JTAG> >0x40 JTAG> >0x40 JTAG> >0x30 JTAG> >0x30 JTAG> >0x48 JTAG> >0x40 JTAG> >0x78 JTAG> >0x40 JTAG> >0x30 JTAG> >0x40 JTAG> >0x48 JTAG> >0x40 JTAG> >0x40 JTAG> >0x40 JTAG>
 >0x30 JTAG> >0x40 JTAG> >0x48 JTAG> >0x40 JTAG>TPIU fitted. >0x40 JTAG> >0x40 JTAG> >0x30 JTAG> >0x40 JTAG> >0x48 JTAG> >0x40 JTAG>ETM fitted. >0x40 JTAG> >0x40 JTAG> >0x30 JTAG> >0x40 JTAG> >0x48 JTAG> >0x40 JTAG> >0x40 JTAG> >0x40 JTAG> >0x30 JTAG> >0x40 JTAG> >0x48 JTAG> >0x40 JTAG>FPUnit: 6 code (BP) slots and 2 literal slots >0x40 JTAG> >0x40 JTAG> >0x30 JTAG> >0x40 JTAG> >0x48 JTAG> >0x40 JTAG> >0x40 JTAG> >0x40 JTAG> >0x30 JTAG> >0x40 JTAG> >0x48 JTAG> >0x40 JTAG> >0x40 JTAG> >0x40 JTAG>
 >0x30 JTAG> >0x30 JTAG> >0x48 JTAG> >0x40 JTAG> ScanLen=4 NumDevices=1 aId[0]=0x4BA00477 aIrRead[0]=0 aScanLen[0]=0 aScanRead[0]=0 (0077ms, 0145ms total)
T17FC 000:181 JLINK_JTAG_GetDeviceID(DeviceIndex = 0)  returns 0x4BA00477 (0000ms, 0145ms total)
T17FC 000:181 JLINK_JTAG_GetDeviceInfo(DeviceIndex = 0)  returns 0x00 (0000ms, 0145ms total)
T17FC 000:181 JLINK_GetDeviceFamily()  returns 3 (0000ms, 0145ms total)
T17FC 000:183 JLINK_ReadMem (0xE00FFFF0, 0x0010 Bytes, ...) -- CPU is running >0x2C8 JTAG> -- Data:  0D 00 00 00 10 00 00 00 05 00 00 00 B1 00 00 00  returns 0x00 (0002ms, 0147ms total)
T17FC 000:185 JLINK_ReadMem (0xE00FFFD0, 0x0020 Bytes, ...) -- CPU is running >0x370 JTAG> -- Data:  00 00 00 00 00 00 00 00 00 00 00 00 00 00 00 00 ...  returns 0x00 (0002ms, 0149ms total)
T17FC 000:187 JLINK_ReadMem (0xE00FF000, 0x0018 Bytes, ...) -- CPU is running >0x2F8 JTAG> -- Data:  03 F0 F0 FF 03 20 F0 FF 03 30 F0 FF 03 10 F0 FF ...  returns 0x00 (0002ms, 0151ms total)
T17FC 000:189 JLINK_ReadMemU32(0xE000ED00, 0x0001 Items, ...) -- CPU is running >0x1D8 JTAG> -- Data:  30 C2 2F 41  returns 0x01 (0002ms, 0153ms total)
T17FC 000:191 JLINK_SetResetType(JLINKARM_RESET_TYPE_NORMAL)  returns ??? (0000ms, 0153ms total)
T17FC 000:191 JLINK_Reset() >0x30 JTAG> >0x78 JTAG> >0x40 JTAG> >0x40 JTAG> >0x48 JTAG> >0x40 JTAG> >0x40 JTAG> >0x40 JTAG> >0x48 JTAG> >0x40 JTAG> >0x40 JTAG> >0x30 JTAG> >0x40 JTAG> >0x40 JTAG> >0x40 JTAG> >0x40 JTAG> >0x40 JTAG> >0x48 JTAG> >0x40 JTAG> >0x78 JTAG> >0x40 JTAG> >0x30 JTAG> >0x40 JTAG> >0x40 JTAG> >0x40 JTAG> >0x40 JTAG> >0x40 JTAG> >0x48 JTAG> >0x40 JTAG> >0x78 JTAG> >0x40 JTAG> >0x30 JTAG> >0x40 JTAG> >0x48 JTAG> >0x40 JTAG> >0x40 JTAG> >0x40 JTAG> >0x30 JTAG> >0x40 JTAG> >0x48 JTAG>
 >0x40 JTAG>Found Cortex-M3 r2p0, Little endian. >0x48 JTAG> >0x48 JTAG> >0x40 JTAG> >0x40 JTAG> >0x30 JTAG> >0x30 JTAG> >0x48 JTAG> >0x40 JTAG> >0x78 JTAG> >0x40 JTAG> >0x30 JTAG> >0x40 JTAG> >0x48 JTAG> >0x40 JTAG> >0x40 JTAG> >0x40 JTAG> >0x30 JTAG> >0x40 JTAG> >0x48 JTAG> >0x40 JTAG>TPIU fitted. >0x40 JTAG> >0x40 JTAG> >0x30 JTAG> >0x40 JTAG> >0x48 JTAG> >0x40 JTAG>ETM fitted. >0x40 JTAG> >0x40 JTAG> >0x30 JTAG> >0x40 JTAG> >0x48 JTAG> >0x40 JTAG> >0x40 JTAG> >0x40 JTAG> >0x30 JTAG> >0x40 JTAG>
 >0x48 JTAG> >0x40 JTAG>FPUnit: 6 code (BP) slots and 2 literal slots >0x40 JTAG> >0x40 JTAG> >0x30 JTAG> >0x40 JTAG> >0x48 JTAG> >0x40 JTAG> >0x40 JTAG> >0x40 JTAG> >0x30 JTAG> >0x40 JTAG> >0x48 JTAG> >0x40 JTAG> >0x40 JTAG> >0x40 JTAG> >0x30 JTAG> >0x30 JTAG> >0x48 JTAG> >0x40 JTAG> -- CPU is running >0x218 JTAG> -- CPU is running >0x1D0 JTAG> -- CPU is running >0x208 JTAG> -- CPU is running >0x1D8 JTAG> -- CPU is running >0x1D8 JTAG> -- CPU is running >0x1D0 JTAG> -- CPU is running >0x1D0 JTAG>
 -- CPU is running >0x1D8 JTAG> >0x170 JTAG> >0x1598 JTAG> >0x40 JTAG> >0x40 JTAG> >0x30 JTAG> >0x40 JTAG> >0x48 JTAG> >0x40 JTAG> >0x1D0 JTAG> >0x1D0 JTAG> >0x1D0 JTAG> >0x1D0 JTAG> >0x1D0 JTAG> >0x1D0 JTAG> >0x1D0 JTAG> >0x1D0 JTAG> >0x1D0 JTAG> >0x1D0 JTAG> >0x1D0 JTAG> >0x1D0 JTAG> >0x1D0 JTAG> >0x1D0 JTAG> >0x1D0 JTAG> >0x1D0 JTAG> >0x1D0 JTAG> >0x1D0 JTAG> >0x1D0 JTAG> >0x1D0 JTAG> >0x1D0 JTAG> >0x218 JTAG> >0x218 JTAG> >0x170 JTAG> >0x1598 JTAG> >0x1D0 JTAG> >0x1D0 JTAG> >0x1D8 JTAG> >0x1D8 JTAG>
 >0x1D8 JTAG> >0x1D8 JTAG> >0x1D8 JTAG> >0x1D8 JTAG> >0x1D8 JTAG> >0x1D8 JTAG> >0x1D0 JTAG> >0x1D0 JTAG> >0x1D0 JTAG> >0x1D0 JTAG> >0x1D0 JTAG> >0x1D0 JTAG> >0x1D0 JTAG> >0x218 JTAG> >0x218 JTAG> >0x170 JTAG> >0x1598 JTAG>
                JLINK_ReadMemHW(0x400FC040, 0x0004 Bytes, ...) >0x1D8 JTAG> -- Data:  01 00 00 00  returns 0x00 (0002ms, 0002ms total)
               -- MA0 is in flash -- Unmirror addr 0x00000258 >0x1D0 JTAG> >0x1D0 JTAG> >0x1D0 JTAG> >0x1D0 JTAG> >0x1D0 JTAG> >0x1D0 JTAG> >0x1D0 JTAG> >0x1D0 JTAG> >0x06 JTAG> (0398ms, 0551ms total)
T17FC 000:589 JLINK_Halt()  returns 0x00 (0000ms, 0551ms total)
T17FC 000:589 JLINK_IsHalted() -- Unmirror addr 0x00000258  returns TRUE (0000ms, 0551ms total)
T17FC 000:589 JLINK_ReadMemU32(0xE000EDF0, 0x0001 Items, ...) >0x1D8 JTAG> -- Data:  03 00 03 00  returns 0x01 (0002ms, 0553ms total)
T17FC 000:591 JLINK_WriteU32(0xE000EDF0, 0xA05F0003) >0x1D0 JTAG> -- Invalidate MA0 status  returns 0x00 (0001ms, 0554ms total)
T17FC 000:592 JLINK_WriteU32(0xE000EDFC, 0x01000000) >0x1D0 JTAG>  returns 0x00 (0002ms, 0556ms total)
T17FC 000:607 JLINK_GetHWStatus(...)  returns 0x00 (0000ms, 0556ms total)
T17FC 000:615 JLINK_GetNumBPUnits(Type = 0xFFFFFF00)  returns 0x06 (0000ms, 0556ms total)
T17FC 000:615 JLINK_GetNumBPUnits(Type = 0xF0)  returns 0x2000 (0000ms, 0556ms total)
T17FC 000:615 JLINK_GetNumWPUnits()  returns 0x04 (0000ms, 0556ms total)
T17FC 000:623 JLINK_GetSpeed()  returns 0xFA0 (0000ms, 0556ms total)
T17FC 000:627 JLINK_ReadMemU32(0xE000E004, 0x0001 Items, ...) >0x1D8 JTAG> -- Data:  01 00 00 00  returns 0x01 (0002ms, 0558ms total)
T17FC 000:629 JLINK_ReadMemU32(0xE000E004, 0x0001 Items, ...) >0x1D8 JTAG> -- Data:  01 00 00 00  returns 0x01 (0001ms, 0559ms total)
T17FC 000:630 JLINK_WriteMem(0xE0001000, 0x001C Bytes, ...) -- Data:  01 00 00 00 00 00 00 00 00 00 00 00 00 00 00 00 ... >0x2F0 JTAG>  returns 0x1C (0002ms, 0561ms total)
T17FC 000:632 JLINK_ReadMem (0xE0001000, 0x001C Bytes, ...) >0x338 JTAG> -- Data:  01 00 00 40 00 00 00 00 00 00 00 00 00 00 00 00 ...  returns 0x00 (0002ms, 0563ms total)
T17FC 000:634 JLINK_Halt()  returns 0x00 (0000ms, 0563ms total)
T17FC 000:634 JLINK_IsHalted()
                JLINK_ReadMemHW(0x400FC040, 0x0004 Bytes, ...) >0x1D8 JTAG> -- Data:  01 00 00 00  returns 0x00 (0002ms, 0002ms total)
               -- MA0 is in flash -- Unmirror addr 0x00000258  returns TRUE (0002ms, 0565ms total)
T17FC 000:639 JLINK_WriteMem(0x10000000, 0x01E4 Bytes, ...) -- Data:  00 BE 0A E0 0D 78 2D 06 68 40 08 24 40 00 00 D3 ... >0x17D8 JTAG>  returns 0x1E4 (0012ms, 0575ms total)
T17FC 000:651 JLINK_WriteReg(R0, 0x00000000)  returns 0x00 (0000ms, 0575ms total)
T17FC 000:651 JLINK_WriteReg(R1, 0x00B71B00)  returns 0x00 (0000ms, 0575ms total)
T17FC 000:651 JLINK_WriteReg(R2, 0x00000001)  returns 0x00 (0000ms, 0575ms total)
T17FC 000:651 JLINK_WriteReg(R3, 0x00000000)  returns 0x00 (0000ms, 0575ms total)
T17FC 000:651 JLINK_WriteReg(R4, 0x00000000)  returns 0x00 (0000ms, 0575ms total)
T17FC 000:651 JLINK_WriteReg(R5, 0x00000000)  returns 0x00 (0000ms, 0575ms total)
T17FC 000:651 JLINK_WriteReg(R6, 0x00000000)  returns 0x00 (0000ms, 0575ms total)
T17FC 000:651 JLINK_WriteReg(R7, 0x00000000)  returns 0x00 (0000ms, 0575ms total)
T17FC 000:651 JLINK_WriteReg(R8, 0x00000000)  returns 0x00 (0000ms, 0575ms total)
T17FC 000:651 JLINK_WriteReg(R9, 0x100001DC)  returns 0x00 (0000ms, 0575ms total)
T17FC 000:651 JLINK_WriteReg(R10, 0x00000000)  returns 0x00 (0000ms, 0575ms total)
T17FC 000:651 JLINK_WriteReg(R11, 0x00000000)  returns 0x00 (0000ms, 0575ms total)
T17FC 000:651 JLINK_WriteReg(R12, 0x00000000)  returns 0x00 (0000ms, 0575ms total)
T17FC 000:651 JLINK_WriteReg(R13, 0x10000800)  returns 0x00 (0000ms, 0575ms total)
T17FC 000:651 JLINK_WriteReg(R14, 0x10000001)  returns 0x00 (0000ms, 0575ms total)
T17FC 000:651 JLINK_WriteReg(R15, 0x10000044)  returns 0x00 (0000ms, 0575ms total)
T17FC 000:651 JLINK_WriteReg(XPSR, 0x01000000)  returns 0x00 (0000ms, 0575ms total)
T17FC 000:651 JLINK_WriteReg(MSP, 0x10000800)  returns 0x00 (0000ms, 0575ms total)
T17FC 000:651 JLINK_WriteReg(PSP, 0x10000800)  returns 0x00 (0000ms, 0575ms total)
T17FC 000:651 JLINK_WriteReg(CFBP, 0x00000000)  returns 0x00 (0000ms, 0575ms total)
T17FC 000:651 JLINK_SetBPEx(Addr = 0x10000000, Type = 0xFFFFFFF2)  returns 0x00000001 (0000ms, 0575ms total)
T17FC 000:651 JLINK_Go() -- Invalidate MA0 status >0x1D0 JTAG> >0x1D0 JTAG> >0x1D0 JTAG> >0x1D0 JTAG> >0x1D0 JTAG> >0x1D0 JTAG> >0x2C8 JTAG> >0x1E8 JTAG> >0x1E8 JTAG> >0x1E8 JTAG> >0x1E8 JTAG> >0x1E8 JTAG> >0x1E8 JTAG> >0x1E8 JTAG> >0x1E8 JTAG> >0x1E8 JTAG> >0x1E8 JTAG> >0x1E8 JTAG> >0x218 JTAG> >0x218 JTAG> (0029ms, 0604ms total)
T17FC 000:680 JLINK_IsHalted() >0x170 JTAG> >0x1598 JTAG>  returns TRUE (0012ms, 0616ms total)
T17FC 000:692 JLINK_ReadReg(R15)  returns 0x10000000 (0000ms, 0604ms total)
T17FC 000:692 JLINK_ClrBPEx(BPHandle = 0x00000001)  returns 0x00 (0000ms, 0604ms total)
T17FC 000:692 JLINK_ReadReg(R0)  returns 0x00000000 (0000ms, 0604ms total)
T17FC 000:692 JLINK_WriteReg(R0, 0x00000000)  returns 0x00 (0000ms, 0604ms total)
T17FC 000:692 JLINK_WriteReg(R1, 0x00B71B00)  returns 0x00 (0000ms, 0604ms total)
T17FC 000:692 JLINK_WriteReg(R2, 0x00000001)  returns 0x00 (0000ms, 0604ms total)
T17FC 000:692 JLINK_WriteReg(R3, 0x00000000)  returns 0x00 (0000ms, 0604ms total)
T17FC 000:692 JLINK_WriteReg(R4, 0x00000000)  returns 0x00 (0000ms, 0604ms total)
T17FC 000:692 JLINK_WriteReg(R5, 0x00000000)  returns 0x00 (0000ms, 0604ms total)
T17FC 000:692 JLINK_WriteReg(R6, 0x00000000)  returns 0x00 (0000ms, 0604ms total)
T17FC 000:692 JLINK_WriteReg(R7, 0x00000000)  returns 0x00 (0000ms, 0604ms total)
T17FC 000:692 JLINK_WriteReg(R8, 0x00000000)  returns 0x00 (0000ms, 0604ms total)
T17FC 000:692 JLINK_WriteReg(R9, 0x100001DC)  returns 0x00 (0001ms, 0605ms total)
T17FC 000:693 JLINK_WriteReg(R10, 0x00000000)  returns 0x00 (0000ms, 0605ms total)
T17FC 000:693 JLINK_WriteReg(R11, 0x00000000)  returns 0x00 (0000ms, 0605ms total)
T17FC 000:693 JLINK_WriteReg(R12, 0x00000000)  returns 0x00 (0000ms, 0605ms total)
T17FC 000:693 JLINK_WriteReg(R13, 0x10000800)  returns 0x00 (0000ms, 0605ms total)
T17FC 000:693 JLINK_WriteReg(R14, 0x10000001)  returns 0x00 (0000ms, 0605ms total)
T17FC 000:693 JLINK_WriteReg(R15, 0x100000D0)  returns 0x00 (0000ms, 0605ms total)
T17FC 000:693 JLINK_WriteReg(XPSR, 0x01000000)  returns 0x00 (0000ms, 0605ms total)
T17FC 000:693 JLINK_WriteReg(MSP, 0x10000800)  returns 0x00 (0000ms, 0605ms total)
T17FC 000:693 JLINK_WriteReg(PSP, 0x10000800)  returns 0x00 (0000ms, 0605ms total)
T17FC 000:693 JLINK_WriteReg(CFBP, 0x00000000)  returns 0x00 (0000ms, 0605ms total)
T17FC 000:693 JLINK_SetBPEx(Addr = 0x10000000, Type = 0xFFFFFFF2)  returns 0x00000002 (0000ms, 0605ms total)
T17FC 000:693 JLINK_Go() >0x2C8 JTAG> >0x1E8 JTAG> >0x1E8 JTAG> >0x1E8 JTAG> >0x1E8 JTAG> >0x218 JTAG> >0x218 JTAG> (0013ms, 0618ms total)
T17FC 000:706 JLINK_IsHalted() >0x170 JTAG>  returns FALSE (0001ms, 0619ms total)
T17FC 000:768 JLINK_IsHalted() >0x170 JTAG>  returns FALSE (0001ms, 0619ms total)
T17FC 000:772 JLINK_IsHalted() >0x170 JTAG>  returns FALSE (0001ms, 0619ms total)
T17FC 000:775 JLINK_IsHalted() >0x170 JTAG>  returns FALSE (0001ms, 0619ms total)
T17FC 000:778 JLINK_IsHalted() >0x170 JTAG>  returns FALSE (0001ms, 0619ms total)
T17FC 000:781 JLINK_IsHalted() >0x170 JTAG>  returns FALSE (0001ms, 0619ms total)
T17FC 000:784 JLINK_IsHalted() >0x170 JTAG>  returns FALSE (0001ms, 0619ms total)
T17FC 000:789 JLINK_IsHalted() >0x170 JTAG>  returns FALSE (0001ms, 0619ms total)
T17FC 000:792 JLINK_IsHalted() >0x170 JTAG>  returns FALSE (0001ms, 0619ms total)
T17FC 000:795 JLINK_IsHalted() >0x170 JTAG>  returns FALSE (0001ms, 0619ms total)
T17FC 000:798 JLINK_IsHalted() >0x170 JTAG>  returns FALSE (0001ms, 0619ms total)
T17FC 000:801 JLINK_IsHalted() >0x170 JTAG>  returns FALSE (0001ms, 0619ms total)
T17FC 000:804 JLINK_IsHalted() >0x170 JTAG>  returns FALSE (0001ms, 0619ms total)
T17FC 000:807 JLINK_IsHalted() >0x170 JTAG>  returns FALSE (0001ms, 0619ms total)
T17FC 000:810 JLINK_IsHalted() >0x170 JTAG> >0x1598 JTAG>  returns TRUE (0012ms, 0630ms total)
T17FC 000:822 JLINK_ReadReg(R15)  returns 0x10000000 (0000ms, 0618ms total)
T17FC 000:822 JLINK_ClrBPEx(BPHandle = 0x00000002)  returns 0x00 (0000ms, 0618ms total)
T17FC 000:822 JLINK_ReadReg(R0)  returns 0x00000000 (0000ms, 0618ms total)
T17FC 000:875 JLINK_WriteReg(R0, 0x00000001)  returns 0x00 (0000ms, 0618ms total)
T17FC 000:875 JLINK_WriteReg(R1, 0x00B71B00)  returns 0x00 (0000ms, 0618ms total)
T17FC 000:875 JLINK_WriteReg(R2, 0x00000001)  returns 0x00 (0000ms, 0618ms total)
T17FC 000:875 JLINK_WriteReg(R3, 0x00000000)  returns 0x00 (0000ms, 0618ms total)
T17FC 000:875 JLINK_WriteReg(R4, 0x00000000)  returns 0x00 (0000ms, 0618ms total)
T17FC 000:875 JLINK_WriteReg(R5, 0x00000000)  returns 0x00 (0000ms, 0618ms total)
T17FC 000:875 JLINK_WriteReg(R6, 0x00000000)  returns 0x00 (0000ms, 0618ms total)
T17FC 000:875 JLINK_WriteReg(R7, 0x00000000)  returns 0x00 (0000ms, 0618ms total)
T17FC 000:875 JLINK_WriteReg(R8, 0x00000000)  returns 0x00 (0000ms, 0618ms total)
T17FC 000:875 JLINK_WriteReg(R9, 0x100001DC)  returns 0x00 (0000ms, 0618ms total)
T17FC 000:875 JLINK_WriteReg(R10, 0x00000000)  returns 0x00 (0000ms, 0618ms total)
T17FC 000:875 JLINK_WriteReg(R11, 0x00000000)  returns 0x00 (0000ms, 0618ms total)
T17FC 000:875 JLINK_WriteReg(R12, 0x00000000)  returns 0x00 (0000ms, 0618ms total)
T17FC 000:875 JLINK_WriteReg(R13, 0x10000800)  returns 0x00 (0000ms, 0618ms total)
T17FC 000:875 JLINK_WriteReg(R14, 0x10000001)  returns 0x00 (0000ms, 0618ms total)
T17FC 000:875 JLINK_WriteReg(R15, 0x100000CC)  returns 0x00 (0000ms, 0618ms total)
T17FC 000:875 JLINK_WriteReg(XPSR, 0x01000000)  returns 0x00 (0000ms, 0618ms total)
T17FC 000:875 JLINK_WriteReg(MSP, 0x10000800)  returns 0x00 (0000ms, 0618ms total)
T17FC 000:875 JLINK_WriteReg(PSP, 0x10000800)  returns 0x00 (0000ms, 0618ms total)
T17FC 000:875 JLINK_WriteReg(CFBP, 0x00000000)  returns 0x00 (0000ms, 0618ms total)
T17FC 000:875 JLINK_SetBPEx(Addr = 0x10000000, Type = 0xFFFFFFF2)  returns 0x00000003 (0000ms, 0618ms total)
T17FC 000:875 JLINK_Go() >0x2C8 JTAG> >0x1E8 JTAG> >0x1E8 JTAG> >0x1E8 JTAG> >0x1E8 JTAG> >0x1E8 JTAG> >0x1E8 JTAG> >0x1E8 JTAG> >0x218 JTAG> >0x218 JTAG> (0017ms, 0635ms total)
T17FC 000:892 JLINK_IsHalted() >0x170 JTAG> >0x1598 JTAG>  returns TRUE (0011ms, 0646ms total)
T17FC 000:903 JLINK_ReadReg(R15)  returns 0x10000000 (0000ms, 0635ms total)
T17FC 000:903 JLINK_ClrBPEx(BPHandle = 0x00000003)  returns 0x00 (0001ms, 0636ms total)
T17FC 000:904 JLINK_ReadReg(R0)  returns 0x00000000 (0000ms, 0636ms total)
T17FC 000:909 JLINK_WriteMem(0x10000000, 0x01E4 Bytes, ...) -- Data:  00 BE 0A E0 0D 78 2D 06 68 40 08 24 40 00 00 D3 ... >0x17D8 JTAG>  returns 0x1E4 (0012ms, 0648ms total)
T17FC 000:921 JLINK_WriteReg(R0, 0x00000000)  returns 0x00 (0000ms, 0648ms total)
T17FC 000:921 JLINK_WriteReg(R1, 0x00B71B00)  returns 0x00 (0000ms, 0648ms total)
T17FC 000:921 JLINK_WriteReg(R2, 0x00000002)  returns 0x00 (0000ms, 0648ms total)
T17FC 000:921 JLINK_WriteReg(R3, 0x00000000)  returns 0x00 (0000ms, 0648ms total)
T17FC 000:921 JLINK_WriteReg(R4, 0x00000000)  returns 0x00 (0000ms, 0648ms total)
T17FC 000:921 JLINK_WriteReg(R5, 0x00000000)  returns 0x00 (0000ms, 0648ms total)
T17FC 000:921 JLINK_WriteReg(R6, 0x00000000)  returns 0x00 (0000ms, 0648ms total)
T17FC 000:921 JLINK_WriteReg(R7, 0x00000000)  returns 0x00 (0000ms, 0648ms total)
T17FC 000:921 JLINK_WriteReg(R8, 0x00000000)  returns 0x00 (0000ms, 0648ms total)
T17FC 000:921 JLINK_WriteReg(R9, 0x100001DC)  returns 0x00 (0000ms, 0648ms total)
T17FC 000:921 JLINK_WriteReg(R10, 0x00000000)  returns 0x00 (0000ms, 0648ms total)
T17FC 000:921 JLINK_WriteReg(R11, 0x00000000)  returns 0x00 (0000ms, 0648ms total)
T17FC 000:921 JLINK_WriteReg(R12, 0x00000000)  returns 0x00 (0000ms, 0648ms total)
T17FC 000:921 JLINK_WriteReg(R13, 0x10000800)  returns 0x00 (0000ms, 0648ms total)
T17FC 000:921 JLINK_WriteReg(R14, 0x10000001)  returns 0x00 (0000ms, 0648ms total)
T17FC 000:921 JLINK_WriteReg(R15, 0x10000044)  returns 0x00 (0000ms, 0648ms total)
T17FC 000:921 JLINK_WriteReg(XPSR, 0x01000000)  returns 0x00 (0000ms, 0648ms total)
T17FC 000:921 JLINK_WriteReg(MSP, 0x10000800)  returns 0x00 (0000ms, 0648ms total)
T17FC 000:921 JLINK_WriteReg(PSP, 0x10000800)  returns 0x00 (0000ms, 0648ms total)
T17FC 000:921 JLINK_WriteReg(CFBP, 0x00000000)  returns 0x00 (0000ms, 0648ms total)
T17FC 000:921 JLINK_SetBPEx(Addr = 0x10000000, Type = 0xFFFFFFF2)  returns 0x00000004 (0000ms, 0648ms total)
T17FC 000:921 JLINK_Go() >0x2C8 JTAG> >0x1E8 JTAG> >0x1E8 JTAG> >0x218 JTAG> >0x218 JTAG> (0010ms, 0658ms total)
T17FC 000:931 JLINK_IsHalted() >0x170 JTAG> >0x1598 JTAG>  returns TRUE (0012ms, 0670ms total)
T17FC 000:943 JLINK_ReadReg(R15)  returns 0x10000000 (0001ms, 0659ms total)
T17FC 000:944 JLINK_ClrBPEx(BPHandle = 0x00000004)  returns 0x00 (0000ms, 0659ms total)
T17FC 000:944 JLINK_ReadReg(R0)  returns 0x00000000 (0000ms, 0659ms total)
T17FC 000:944 JLINK_WriteMem(0x10000204, 0x0400 Bytes, ...) -- Data:  00 23 08 20 59 02 00 00 61 02 00 00 63 02 00 00 ... >0x30A0 JTAG>  returns 0x400 (0023ms, 0682ms total)
T17FC 000:967 JLINK_WriteReg(R0, 0x00000000)  returns 0x00 (0000ms, 0682ms total)
T17FC 000:967 JLINK_WriteReg(R1, 0x00000400)  returns 0x00 (0000ms, 0682ms total)
T17FC 000:967 JLINK_WriteReg(R2, 0x10000204)  returns 0x00 (0001ms, 0683ms total)
T17FC 000:968 JLINK_WriteReg(R3, 0x00000000)  returns 0x00 (0000ms, 0683ms total)
T17FC 000:968 JLINK_WriteReg(R4, 0x00000000)  returns 0x00 (0000ms, 0683ms total)
T17FC 000:968 JLINK_WriteReg(R5, 0x00000000)  returns 0x00 (0000ms, 0683ms total)
T17FC 000:968 JLINK_WriteReg(R6, 0x00000000)  returns 0x00 (0000ms, 0683ms total)
T17FC 000:968 JLINK_WriteReg(R7, 0x00000000)  returns 0x00 (0000ms, 0683ms total)
T17FC 000:968 JLINK_WriteReg(R8, 0x00000000)  returns 0x00 (0000ms, 0683ms total)
T17FC 000:968 JLINK_WriteReg(R9, 0x100001DC)  returns 0x00 (0000ms, 0683ms total)
T17FC 000:968 JLINK_WriteReg(R10, 0x00000000)  returns 0x00 (0000ms, 0683ms total)
T17FC 000:968 JLINK_WriteReg(R11, 0x00000000)  returns 0x00 (0000ms, 0683ms total)
T17FC 000:968 JLINK_WriteReg(R12, 0x00000000)  returns 0x00 (0000ms, 0683ms total)
T17FC 000:968 JLINK_WriteReg(R13, 0x10000800)  returns 0x00 (0000ms, 0683ms total)
T17FC 000:968 JLINK_WriteReg(R14, 0x10000001)  returns 0x00 (0000ms, 0683ms total)
T17FC 000:968 JLINK_WriteReg(R15, 0x10000156)  returns 0x00 (0000ms, 0683ms total)
T17FC 000:968 JLINK_WriteReg(XPSR, 0x01000000)  returns 0x00 (0000ms, 0683ms total)
T17FC 000:968 JLINK_WriteReg(MSP, 0x10000800)  returns 0x00 (0000ms, 0683ms total)
T17FC 000:968 JLINK_WriteReg(PSP, 0x10000800)  returns 0x00 (0000ms, 0683ms total)
T17FC 000:968 JLINK_WriteReg(CFBP, 0x00000000)  returns 0x00 (0000ms, 0683ms total)
T17FC 000:968 JLINK_SetBPEx(Addr = 0x10000000, Type = 0xFFFFFFF2)  returns 0x00000005 (0000ms, 0683ms total)
T17FC 000:968 JLINK_Go() >0x2C8 JTAG> >0x1E8 JTAG> >0x1E8 JTAG> >0x1E8 JTAG> >0x1E8 JTAG> >0x1E8 JTAG> >0x218 JTAG> >0x218 JTAG> (0014ms, 0697ms total)
T17FC 000:982 JLINK_IsHalted() >0x170 JTAG>  returns FALSE (0001ms, 0698ms total)
T17FC 001:005 JLINK_IsHalted() >0x170 JTAG> >0x1598 JTAG>  returns TRUE (0013ms, 0710ms total)
T17FC 001:018 JLINK_ReadReg(R15)  returns 0x10000000 (0000ms, 0697ms total)
T17FC 001:018 JLINK_ClrBPEx(BPHandle = 0x00000005)  returns 0x00 (0000ms, 0697ms total)
T17FC 001:018 JLINK_ReadReg(R0)  returns 0x00000000 (0000ms, 0697ms total)
T17FC 001:019 JLINK_WriteMem(0x10000204, 0x0400 Bytes, ...) -- Data:  02 46 DF A3 1B 68 00 93 00 20 0D E0 1D F8 00 40 ... >0x30A0 JTAG>  returns 0x400 (0023ms, 0720ms total)
T17FC 001:042 JLINK_WriteReg(R0, 0x00000400)  returns 0x00 (0000ms, 0720ms total)
T17FC 001:042 JLINK_WriteReg(R1, 0x00000400)  returns 0x00 (0000ms, 0720ms total)
T17FC 001:042 JLINK_WriteReg(R2, 0x10000204)  returns 0x00 (0000ms, 0720ms total)
T17FC 001:042 JLINK_WriteReg(R3, 0x00000000)  returns 0x00 (0000ms, 0720ms total)
T17FC 001:042 JLINK_WriteReg(R4, 0x00000000)  returns 0x00 (0000ms, 0720ms total)
T17FC 001:042 JLINK_WriteReg(R5, 0x00000000)  returns 0x00 (0000ms, 0720ms total)
T17FC 001:042 JLINK_WriteReg(R6, 0x00000000)  returns 0x00 (0000ms, 0720ms total)
T17FC 001:042 JLINK_WriteReg(R7, 0x00000000)  returns 0x00 (0000ms, 0720ms total)
T17FC 001:042 JLINK_WriteReg(R8, 0x00000000)  returns 0x00 (0000ms, 0720ms total)
T17FC 001:042 JLINK_WriteReg(R9, 0x100001DC)  returns 0x00 (0000ms, 0720ms total)
T17FC 001:042 JLINK_WriteReg(R10, 0x00000000)  returns 0x00 (0000ms, 0720ms total)
T17FC 001:043 JLINK_WriteReg(R11, 0x00000000)  returns 0x00 (0000ms, 0721ms total)
T17FC 001:043 JLINK_WriteReg(R12, 0x00000000)  returns 0x00 (0000ms, 0721ms total)
T17FC 001:043 JLINK_WriteReg(R13, 0x10000800)  returns 0x00 (0000ms, 0721ms total)
T17FC 001:043 JLINK_WriteReg(R14, 0x10000001)  returns 0x00 (0000ms, 0721ms total)
T17FC 001:043 JLINK_WriteReg(R15, 0x10000156)  returns 0x00 (0000ms, 0721ms total)
T17FC 001:043 JLINK_WriteReg(XPSR, 0x01000000)  returns 0x00 (0000ms, 0721ms total)
T17FC 001:043 JLINK_WriteReg(MSP, 0x10000800)  returns 0x00 (0000ms, 0721ms total)
T17FC 001:043 JLINK_WriteReg(PSP, 0x10000800)  returns 0x00 (0000ms, 0721ms total)
T17FC 001:043 JLINK_WriteReg(CFBP, 0x00000000)  returns 0x00 (0000ms, 0721ms total)
T17FC 001:043 JLINK_SetBPEx(Addr = 0x10000000, Type = 0xFFFFFFF2)  returns 0x00000006 (0000ms, 0721ms total)
T17FC 001:043 JLINK_Go() >0x2C8 JTAG> >0x1E8 JTAG> >0x1E8 JTAG> >0x1E8 JTAG> >0x1E8 JTAG> >0x1E8 JTAG> >0x1E8 JTAG> >0x1E8 JTAG> >0x218 JTAG> >0x218 JTAG> (0016ms, 0737ms total)
T17FC 001:059 JLINK_IsHalted() >0x170 JTAG>  returns FALSE (0001ms, 0738ms total)
T17FC 001:077 JLINK_IsHalted() >0x170 JTAG> >0x1598 JTAG>  returns TRUE (0013ms, 0750ms total)
T17FC 001:090 JLINK_ReadReg(R15)  returns 0x10000000 (0000ms, 0737ms total)
T17FC 001:090 JLINK_ClrBPEx(BPHandle = 0x00000006)  returns 0x00 (0000ms, 0737ms total)
T17FC 001:090 JLINK_ReadReg(R0)  returns 0x00000000 (0000ms, 0737ms total)
T17FC 001:091 JLINK_WriteMem(0x10000204, 0x0400 Bytes, ...) -- Data:  20 20 20 20 00 00 00 00 1E 00 00 80 01 02 00 00 ... >0x30A0 JTAG>  returns 0x400 (0023ms, 0760ms total)
T17FC 001:114 JLINK_WriteReg(R0, 0x00000800)  returns 0x00 (0000ms, 0760ms total)
T17FC 001:114 JLINK_WriteReg(R1, 0x00000400)  returns 0x00 (0000ms, 0760ms total)
T17FC 001:114 JLINK_WriteReg(R2, 0x10000204)  returns 0x00 (0000ms, 0760ms total)
T17FC 001:114 JLINK_WriteReg(R3, 0x00000000)  returns 0x00 (0000ms, 0760ms total)
T17FC 001:114 JLINK_WriteReg(R4, 0x00000000)  returns 0x00 (0000ms, 0760ms total)
T17FC 001:115 JLINK_WriteReg(R5, 0x00000000)  returns 0x00 (0000ms, 0761ms total)
T17FC 001:115 JLINK_WriteReg(R6, 0x00000000)  returns 0x00 (0000ms, 0761ms total)
T17FC 001:115 JLINK_WriteReg(R7, 0x00000000)  returns 0x00 (0000ms, 0761ms total)
T17FC 001:115 JLINK_WriteReg(R8, 0x00000000)  returns 0x00 (0000ms, 0761ms total)
T17FC 001:115 JLINK_WriteReg(R9, 0x100001DC)  returns 0x00 (0000ms, 0761ms total)
T17FC 001:115 JLINK_WriteReg(R10, 0x00000000)  returns 0x00 (0000ms, 0761ms total)
T17FC 001:115 JLINK_WriteReg(R11, 0x00000000)  returns 0x00 (0000ms, 0761ms total)
T17FC 001:115 JLINK_WriteReg(R12, 0x00000000)  returns 0x00 (0000ms, 0761ms total)
T17FC 001:115 JLINK_WriteReg(R13, 0x10000800)  returns 0x00 (0000ms, 0761ms total)
T17FC 001:115 JLINK_WriteReg(R14, 0x10000001)  returns 0x00 (0000ms, 0761ms total)
T17FC 001:115 JLINK_WriteReg(R15, 0x10000156)  returns 0x00 (0000ms, 0761ms total)
T17FC 001:115 JLINK_WriteReg(XPSR, 0x01000000)  returns 0x00 (0000ms, 0761ms total)
T17FC 001:115 JLINK_WriteReg(MSP, 0x10000800)  returns 0x00 (0000ms, 0761ms total)
T17FC 001:115 JLINK_WriteReg(PSP, 0x10000800)  returns 0x00 (0000ms, 0761ms total)
T17FC 001:115 JLINK_WriteReg(CFBP, 0x00000000)  returns 0x00 (0000ms, 0761ms total)
T17FC 001:115 JLINK_SetBPEx(Addr = 0x10000000, Type = 0xFFFFFFF2)  returns 0x00000007 (0000ms, 0761ms total)
T17FC 001:115 JLINK_Go() >0x2C8 JTAG> >0x1E8 JTAG> >0x1E8 JTAG> >0x1E8 JTAG> >0x1E8 JTAG> >0x1E8 JTAG> >0x1E8 JTAG> >0x1E8 JTAG> >0x218 JTAG> >0x218 JTAG> (0018ms, 0779ms total)
T17FC 001:133 JLINK_IsHalted() >0x170 JTAG>  returns FALSE (0001ms, 0780ms total)
T17FC 001:140 JLINK_IsHalted() >0x170 JTAG> >0x1598 JTAG>  returns TRUE (0012ms, 0791ms total)
T17FC 001:152 JLINK_ReadReg(R15)  returns 0x10000000 (0000ms, 0779ms total)
T17FC 001:152 JLINK_ClrBPEx(BPHandle = 0x00000007)  returns 0x00 (0000ms, 0779ms total)
T17FC 001:152 JLINK_ReadReg(R0)  returns 0x00000000 (0000ms, 0779ms total)
T17FC 001:153 JLINK_WriteMem(0x10000204, 0x0400 Bytes, ...) -- Data:  40 6C 40 F4 00 20 48 64 08 46 C0 6C 40 F0 20 40 ... >0x30A0 JTAG>  returns 0x400 (0023ms, 0802ms total)
T17FC 001:176 JLINK_WriteReg(R0, 0x00000C00)  returns 0x00 (0000ms, 0802ms total)
T17FC 001:176 JLINK_WriteReg(R1, 0x00000400)  returns 0x00 (0000ms, 0802ms total)
T17FC 001:176 JLINK_WriteReg(R2, 0x10000204)  returns 0x00 (0000ms, 0802ms total)
T17FC 001:176 JLINK_WriteReg(R3, 0x00000000)  returns 0x00 (0000ms, 0802ms total)
T17FC 001:176 JLINK_WriteReg(R4, 0x00000000)  returns 0x00 (0000ms, 0802ms total)
T17FC 001:176 JLINK_WriteReg(R5, 0x00000000)  returns 0x00 (0000ms, 0802ms total)
T17FC 001:176 JLINK_WriteReg(R6, 0x00000000)  returns 0x00 (0000ms, 0802ms total)
T17FC 001:176 JLINK_WriteReg(R7, 0x00000000)  returns 0x00 (0000ms, 0802ms total)
T17FC 001:176 JLINK_WriteReg(R8, 0x00000000)  returns 0x00 (0000ms, 0802ms total)
T17FC 001:176 JLINK_WriteReg(R9, 0x100001DC)  returns 0x00 (0000ms, 0802ms total)
T17FC 001:176 JLINK_WriteReg(R10, 0x00000000)  returns 0x00 (0000ms, 0802ms total)
T17FC 001:176 JLINK_WriteReg(R11, 0x00000000)  returns 0x00 (0000ms, 0802ms total)
T17FC 001:176 JLINK_WriteReg(R12, 0x00000000)  returns 0x00 (0000ms, 0802ms total)
T17FC 001:176 JLINK_WriteReg(R13, 0x10000800)  returns 0x00 (0000ms, 0802ms total)
T17FC 001:176 JLINK_WriteReg(R14, 0x10000001)  returns 0x00 (0000ms, 0802ms total)
T17FC 001:176 JLINK_WriteReg(R15, 0x10000156)  returns 0x00 (0000ms, 0802ms total)
T17FC 001:176 JLINK_WriteReg(XPSR, 0x01000000)  returns 0x00 (0000ms, 0802ms total)
T17FC 001:176 JLINK_WriteReg(MSP, 0x10000800)  returns 0x00 (0000ms, 0802ms total)
T17FC 001:176 JLINK_WriteReg(PSP, 0x10000800)  returns 0x00 (0000ms, 0802ms total)
T17FC 001:176 JLINK_WriteReg(CFBP, 0x00000000)  returns 0x00 (0000ms, 0802ms total)
T17FC 001:176 JLINK_SetBPEx(Addr = 0x10000000, Type = 0xFFFFFFF2)  returns 0x00000008 (0000ms, 0802ms total)
T17FC 001:176 JLINK_Go() >0x2C8 JTAG> >0x1E8 JTAG> >0x1E8 JTAG> >0x1E8 JTAG> >0x1E8 JTAG> >0x1E8 JTAG> >0x1E8 JTAG> >0x1E8 JTAG> >0x218 JTAG> >0x218 JTAG> (0019ms, 0821ms total)
T17FC 001:195 JLINK_IsHalted() >0x170 JTAG>  returns FALSE (0001ms, 0822ms total)
T17FC 001:209 JLINK_IsHalted() >0x170 JTAG> >0x1598 JTAG>  returns TRUE (0013ms, 0834ms total)
T17FC 001:222 JLINK_ReadReg(R15)  returns 0x10000000 (0000ms, 0821ms total)
T17FC 001:222 JLINK_ClrBPEx(BPHandle = 0x00000008)  returns 0x00 (0000ms, 0821ms total)
T17FC 001:222 JLINK_ReadReg(R0)  returns 0x00000000 (0000ms, 0821ms total)
T17FC 001:223 JLINK_WriteMem(0x10000204, 0x0400 Bytes, ...) -- Data:  C0 02 51 60 F8 4A 42 F8 20 10 40 1C 03 28 ED D3 ... >0x30A0 JTAG>  returns 0x400 (0023ms, 0844ms total)
T17FC 001:246 JLINK_WriteReg(R0, 0x00001000)  returns 0x00 (0000ms, 0844ms total)
T17FC 001:246 JLINK_WriteReg(R1, 0x00000400)  returns 0x00 (0000ms, 0844ms total)
T17FC 001:246 JLINK_WriteReg(R2, 0x10000204)  returns 0x00 (0000ms, 0844ms total)
T17FC 001:246 JLINK_WriteReg(R3, 0x00000000)  returns 0x00 (0000ms, 0844ms total)
T17FC 001:246 JLINK_WriteReg(R4, 0x00000000)  returns 0x00 (0000ms, 0844ms total)
T17FC 001:246 JLINK_WriteReg(R5, 0x00000000)  returns 0x00 (0000ms, 0844ms total)
T17FC 001:246 JLINK_WriteReg(R6, 0x00000000)  returns 0x00 (0000ms, 0844ms total)
T17FC 001:246 JLINK_WriteReg(R7, 0x00000000)  returns 0x00 (0000ms, 0844ms total)
T17FC 001:247 JLINK_WriteReg(R8, 0x00000000)  returns 0x00 (0000ms, 0845ms total)
T17FC 001:247 JLINK_WriteReg(R9, 0x100001DC)  returns 0x00 (0000ms, 0845ms total)
T17FC 001:247 JLINK_WriteReg(R10, 0x00000000)  returns 0x00 (0000ms, 0845ms total)
T17FC 001:247 JLINK_WriteReg(R11, 0x00000000)  returns 0x00 (0000ms, 0845ms total)
T17FC 001:247 JLINK_WriteReg(R12, 0x00000000)  returns 0x00 (0000ms, 0845ms total)
T17FC 001:247 JLINK_WriteReg(R13, 0x10000800)  returns 0x00 (0000ms, 0845ms total)
T17FC 001:247 JLINK_WriteReg(R14, 0x10000001)  returns 0x00 (0000ms, 0845ms total)
T17FC 001:247 JLINK_WriteReg(R15, 0x10000156)  returns 0x00 (0000ms, 0845ms total)
T17FC 001:247 JLINK_WriteReg(XPSR, 0x01000000)  returns 0x00 (0000ms, 0845ms total)
T17FC 001:247 JLINK_WriteReg(MSP, 0x10000800)  returns 0x00 (0000ms, 0845ms total)
T17FC 001:247 JLINK_WriteReg(PSP, 0x10000800)  returns 0x00 (0000ms, 0845ms total)
T17FC 001:247 JLINK_WriteReg(CFBP, 0x00000000)  returns 0x00 (0000ms, 0845ms total)
T17FC 001:247 JLINK_SetBPEx(Addr = 0x10000000, Type = 0xFFFFFFF2)  returns 0x00000009 (0000ms, 0845ms total)
T17FC 001:247 JLINK_Go() >0x2C8 JTAG> >0x1E8 JTAG> >0x1E8 JTAG> >0x1E8 JTAG> >0x1E8 JTAG> >0x1E8 JTAG> >0x1E8 JTAG> >0x1E8 JTAG> >0x218 JTAG> >0x218 JTAG> (0017ms, 0862ms total)
T17FC 001:264 JLINK_IsHalted() >0x170 JTAG>  returns FALSE (0002ms, 0864ms total)
T17FC 001:280 JLINK_IsHalted() >0x170 JTAG> >0x1598 JTAG>  returns TRUE (0013ms, 0875ms total)
T17FC 001:293 JLINK_ReadReg(R15)  returns 0x10000000 (0000ms, 0862ms total)
T17FC 001:293 JLINK_ClrBPEx(BPHandle = 0x00000009)  returns 0x00 (0000ms, 0862ms total)
T17FC 001:293 JLINK_ReadReg(R0)  returns 0x00000000 (0000ms, 0862ms total)
T17FC 001:294 JLINK_WriteMem(0x10000204, 0x0400 Bytes, ...) -- Data:  C8 F3 07 20 08 01 00 50 10 01 00 50 00 C0 09 20 ... >0x30A0 JTAG>  returns 0x400 (0024ms, 0886ms total)
T17FC 001:318 JLINK_WriteReg(R0, 0x00001400)  returns 0x00 (0000ms, 0886ms total)
T17FC 001:318 JLINK_WriteReg(R1, 0x00000400)  returns 0x00 (0000ms, 0886ms total)
T17FC 001:318 JLINK_WriteReg(R2, 0x10000204)  returns 0x00 (0000ms, 0886ms total)
T17FC 001:318 JLINK_WriteReg(R3, 0x00000000)  returns 0x00 (0000ms, 0886ms total)
T17FC 001:318 JLINK_WriteReg(R4, 0x00000000)  returns 0x00 (0000ms, 0886ms total)
T17FC 001:318 JLINK_WriteReg(R5, 0x00000000)  returns 0x00 (0000ms, 0886ms total)
T17FC 001:318 JLINK_WriteReg(R6, 0x00000000)  returns 0x00 (0000ms, 0886ms total)
T17FC 001:318 JLINK_WriteReg(R7, 0x00000000)  returns 0x00 (0000ms, 0886ms total)
T17FC 001:318 JLINK_WriteReg(R8, 0x00000000)  returns 0x00 (0000ms, 0886ms total)
T17FC 001:318 JLINK_WriteReg(R9, 0x100001DC)  returns 0x00 (0000ms, 0886ms total)
T17FC 001:318 JLINK_WriteReg(R10, 0x00000000)  returns 0x00 (0000ms, 0886ms total)
T17FC 001:318 JLINK_WriteReg(R11, 0x00000000)  returns 0x00 (0000ms, 0886ms total)
T17FC 001:318 JLINK_WriteReg(R12, 0x00000000)  returns 0x00 (0000ms, 0886ms total)
T17FC 001:318 JLINK_WriteReg(R13, 0x10000800)  returns 0x00 (0000ms, 0886ms total)
T17FC 001:318 JLINK_WriteReg(R14, 0x10000001)  returns 0x00 (0000ms, 0886ms total)
T17FC 001:318 JLINK_WriteReg(R15, 0x10000156)  returns 0x00 (0000ms, 0886ms total)
T17FC 001:318 JLINK_WriteReg(XPSR, 0x01000000)  returns 0x00 (0000ms, 0886ms total)
T17FC 001:318 JLINK_WriteReg(MSP, 0x10000800)  returns 0x00 (0000ms, 0886ms total)
T17FC 001:318 JLINK_WriteReg(PSP, 0x10000800)  returns 0x00 (0000ms, 0886ms total)
T17FC 001:318 JLINK_WriteReg(CFBP, 0x00000000)  returns 0x00 (0000ms, 0886ms total)
T17FC 001:318 JLINK_SetBPEx(Addr = 0x10000000, Type = 0xFFFFFFF2)  returns 0x0000000A (0000ms, 0886ms total)
T17FC 001:318 JLINK_Go() >0x2C8 JTAG> >0x1E8 JTAG> >0x1E8 JTAG> >0x1E8 JTAG> >0x1E8 JTAG> >0x1E8 JTAG> >0x1E8 JTAG> >0x1E8 JTAG> >0x218 JTAG> >0x218 JTAG> (0019ms, 0905ms total)
T17FC 001:337 JLINK_IsHalted() >0x170 JTAG>  returns FALSE (0001ms, 0906ms total)
T17FC 001:342 JLINK_IsHalted() >0x170 JTAG> >0x1598 JTAG>  returns TRUE (0012ms, 0917ms total)
T17FC 001:354 JLINK_ReadReg(R15)  returns 0x10000000 (0000ms, 0905ms total)
T17FC 001:354 JLINK_ClrBPEx(BPHandle = 0x0000000A)  returns 0x00 (0000ms, 0905ms total)
T17FC 001:354 JLINK_ReadReg(R0)  returns 0x00000000 (0000ms, 0905ms total)
T17FC 001:355 JLINK_WriteMem(0x10000204, 0x0400 Bytes, ...) -- Data:  80 6F FA D0 03 20 1F 49 08 60 4F F0 AA 00 13 49 ... >0x30A0 JTAG>  returns 0x400 (0024ms, 0929ms total)
T17FC 001:379 JLINK_WriteReg(R0, 0x00001800)  returns 0x00 (0000ms, 0929ms total)
T17FC 001:379 JLINK_WriteReg(R1, 0x00000400)  returns 0x00 (0000ms, 0929ms total)
T17FC 001:379 JLINK_WriteReg(R2, 0x10000204)  returns 0x00 (0000ms, 0929ms total)
T17FC 001:379 JLINK_WriteReg(R3, 0x00000000)  returns 0x00 (0000ms, 0929ms total)
T17FC 001:379 JLINK_WriteReg(R4, 0x00000000)  returns 0x00 (0000ms, 0929ms total)
T17FC 001:379 JLINK_WriteReg(R5, 0x00000000)  returns 0x00 (0000ms, 0929ms total)
T17FC 001:379 JLINK_WriteReg(R6, 0x00000000)  returns 0x00 (0000ms, 0929ms total)
T17FC 001:379 JLINK_WriteReg(R7, 0x00000000)  returns 0x00 (0000ms, 0929ms total)
T17FC 001:379 JLINK_WriteReg(R8, 0x00000000)  returns 0x00 (0000ms, 0929ms total)
T17FC 001:379 JLINK_WriteReg(R9, 0x100001DC)  returns 0x00 (0000ms, 0929ms total)
T17FC 001:379 JLINK_WriteReg(R10, 0x00000000)  returns 0x00 (0000ms, 0929ms total)
T17FC 001:379 JLINK_WriteReg(R11, 0x00000000)  returns 0x00 (0000ms, 0929ms total)
T17FC 001:379 JLINK_WriteReg(R12, 0x00000000)  returns 0x00 (0000ms, 0929ms total)
T17FC 001:379 JLINK_WriteReg(R13, 0x10000800)  returns 0x00 (0000ms, 0929ms total)
T17FC 001:379 JLINK_WriteReg(R14, 0x10000001)  returns 0x00 (0000ms, 0929ms total)
T17FC 001:379 JLINK_WriteReg(R15, 0x10000156)  returns 0x00 (0000ms, 0929ms total)
T17FC 001:379 JLINK_WriteReg(XPSR, 0x01000000)  returns 0x00 (0000ms, 0929ms total)
T17FC 001:379 JLINK_WriteReg(MSP, 0x10000800)  returns 0x00 (0000ms, 0929ms total)
T17FC 001:379 JLINK_WriteReg(PSP, 0x10000800)  returns 0x00 (0000ms, 0929ms total)
T17FC 001:379 JLINK_WriteReg(CFBP, 0x00000000)  returns 0x00 (0000ms, 0929ms total)
T17FC 001:379 JLINK_SetBPEx(Addr = 0x10000000, Type = 0xFFFFFFF2)  returns 0x0000000B (0000ms, 0929ms total)
T17FC 001:379 JLINK_Go() >0x2C8 JTAG> >0x1E8 JTAG> >0x1E8 JTAG> >0x1E8 JTAG> >0x1E8 JTAG> >0x1E8 JTAG> >0x1E8 JTAG> >0x1E8 JTAG> >0x218 JTAG> >0x218 JTAG> (0015ms, 0944ms total)
T17FC 001:394 JLINK_IsHalted() >0x170 JTAG>  returns FALSE (0002ms, 0946ms total)
T17FC 001:410 JLINK_IsHalted() >0x170 JTAG> >0x1598 JTAG>  returns TRUE (0012ms, 0956ms total)
T17FC 001:422 JLINK_ReadReg(R15)  returns 0x10000000 (0000ms, 0944ms total)
T17FC 001:422 JLINK_ClrBPEx(BPHandle = 0x0000000B)  returns 0x00 (0000ms, 0944ms total)
T17FC 001:422 JLINK_ReadReg(R0)  returns 0x00000000 (0000ms, 0944ms total)
T17FC 001:422 JLINK_WriteMem(0x10000204, 0x0400 Bytes, ...) -- Data:  00 BF 4F F0 80 50 21 49 C8 63 00 BF 4F F0 80 50 ... >0x30A0 JTAG>  returns 0x400 (0024ms, 0968ms total)
T17FC 001:446 JLINK_WriteReg(R0, 0x00001C00)  returns 0x00 (0000ms, 0968ms total)
T17FC 001:446 JLINK_WriteReg(R1, 0x00000400)  returns 0x00 (0000ms, 0968ms total)
T17FC 001:446 JLINK_WriteReg(R2, 0x10000204)  returns 0x00 (0000ms, 0968ms total)
T17FC 001:446 JLINK_WriteReg(R3, 0x00000000)  returns 0x00 (0000ms, 0968ms total)
T17FC 001:446 JLINK_WriteReg(R4, 0x00000000)  returns 0x00 (0000ms, 0968ms total)
T17FC 001:446 JLINK_WriteReg(R5, 0x00000000)  returns 0x00 (0000ms, 0968ms total)
T17FC 001:446 JLINK_WriteReg(R6, 0x00000000)  returns 0x00 (0000ms, 0968ms total)
T17FC 001:446 JLINK_WriteReg(R7, 0x00000000)  returns 0x00 (0000ms, 0968ms total)
T17FC 001:446 JLINK_WriteReg(R8, 0x00000000)  returns 0x00 (0000ms, 0968ms total)
T17FC 001:446 JLINK_WriteReg(R9, 0x100001DC)  returns 0x00 (0000ms, 0968ms total)
T17FC 001:446 JLINK_WriteReg(R10, 0x00000000)  returns 0x00 (0000ms, 0968ms total)
T17FC 001:446 JLINK_WriteReg(R11, 0x00000000)  returns 0x00 (0000ms, 0968ms total)
T17FC 001:446 JLINK_WriteReg(R12, 0x00000000)  returns 0x00 (0000ms, 0968ms total)
T17FC 001:446 JLINK_WriteReg(R13, 0x10000800)  returns 0x00 (0000ms, 0968ms total)
T17FC 001:446 JLINK_WriteReg(R14, 0x10000001)  returns 0x00 (0000ms, 0968ms total)
T17FC 001:446 JLINK_WriteReg(R15, 0x10000156)  returns 0x00 (0000ms, 0968ms total)
T17FC 001:446 JLINK_WriteReg(XPSR, 0x01000000)  returns 0x00 (0000ms, 0968ms total)
T17FC 001:446 JLINK_WriteReg(MSP, 0x10000800)  returns 0x00 (0000ms, 0968ms total)
T17FC 001:446 JLINK_WriteReg(PSP, 0x10000800)  returns 0x00 (0000ms, 0968ms total)
T17FC 001:446 JLINK_WriteReg(CFBP, 0x00000000)  returns 0x00 (0000ms, 0968ms total)
T17FC 001:446 JLINK_SetBPEx(Addr = 0x10000000, Type = 0xFFFFFFF2)  returns 0x0000000C (0000ms, 0968ms total)
T17FC 001:446 JLINK_Go() >0x2C8 JTAG> >0x1E8 JTAG> >0x1E8 JTAG> >0x1E8 JTAG> >0x1E8 JTAG> >0x1E8 JTAG> >0x1E8 JTAG> >0x1E8 JTAG> >0x218 JTAG> >0x218 JTAG> (0016ms, 0984ms total)
T17FC 001:462 JLINK_IsHalted() >0x170 JTAG>  returns FALSE (0001ms, 0985ms total)
T17FC 001:467 JLINK_IsHalted() >0x170 JTAG>  returns FALSE (0001ms, 0985ms total)
T17FC 001:470 JLINK_IsHalted() >0x170 JTAG> >0x1598 JTAG>  returns TRUE (0012ms, 0996ms total)
T17FC 001:482 JLINK_ReadReg(R15)  returns 0x10000000 (0000ms, 0984ms total)
T17FC 001:482 JLINK_ClrBPEx(BPHandle = 0x0000000C)  returns 0x00 (0000ms, 0984ms total)
T17FC 001:482 JLINK_ReadReg(R0)  returns 0x00000000 (0000ms, 0984ms total)
T17FC 001:483 JLINK_WriteMem(0x10000204, 0x0400 Bytes, ...) -- Data:  4F F0 80 50 29 49 88 63 01 15 28 48 81 65 00 BF ... >0x30A0 JTAG>  returns 0x400 (0023ms, 1007ms total)
T17FC 001:506 JLINK_WriteReg(R0, 0x00002000)  returns 0x00 (0000ms, 1007ms total)
T17FC 001:506 JLINK_WriteReg(R1, 0x00000400)  returns 0x00 (0000ms, 1007ms total)
T17FC 001:506 JLINK_WriteReg(R2, 0x10000204)  returns 0x00 (0000ms, 1007ms total)
T17FC 001:506 JLINK_WriteReg(R3, 0x00000000)  returns 0x00 (0000ms, 1007ms total)
T17FC 001:506 JLINK_WriteReg(R4, 0x00000000)  returns 0x00 (0000ms, 1007ms total)
T17FC 001:506 JLINK_WriteReg(R5, 0x00000000)  returns 0x00 (0000ms, 1007ms total)
T17FC 001:506 JLINK_WriteReg(R6, 0x00000000)  returns 0x00 (0000ms, 1007ms total)
T17FC 001:506 JLINK_WriteReg(R7, 0x00000000)  returns 0x00 (0000ms, 1007ms total)
T17FC 001:506 JLINK_WriteReg(R8, 0x00000000)  returns 0x00 (0000ms, 1007ms total)
T17FC 001:506 JLINK_WriteReg(R9, 0x100001DC)  returns 0x00 (0000ms, 1007ms total)
T17FC 001:506 JLINK_WriteReg(R10, 0x00000000)  returns 0x00 (0000ms, 1007ms total)
T17FC 001:506 JLINK_WriteReg(R11, 0x00000000)  returns 0x00 (0000ms, 1007ms total)
T17FC 001:506 JLINK_WriteReg(R12, 0x00000000)  returns 0x00 (0000ms, 1007ms total)
T17FC 001:506 JLINK_WriteReg(R13, 0x10000800)  returns 0x00 (0000ms, 1007ms total)
T17FC 001:507 JLINK_WriteReg(R14, 0x10000001)  returns 0x00 (0000ms, 1008ms total)
T17FC 001:507 JLINK_WriteReg(R15, 0x10000156)  returns 0x00 (0000ms, 1008ms total)
T17FC 001:507 JLINK_WriteReg(XPSR, 0x01000000)  returns 0x00 (0000ms, 1008ms total)
T17FC 001:507 JLINK_WriteReg(MSP, 0x10000800)  returns 0x00 (0000ms, 1008ms total)
T17FC 001:507 JLINK_WriteReg(PSP, 0x10000800)  returns 0x00 (0000ms, 1008ms total)
T17FC 001:507 JLINK_WriteReg(CFBP, 0x00000000)  returns 0x00 (0000ms, 1008ms total)
T17FC 001:507 JLINK_SetBPEx(Addr = 0x10000000, Type = 0xFFFFFFF2)  returns 0x0000000D (0000ms, 1008ms total)
T17FC 001:507 JLINK_Go() >0x2C8 JTAG> >0x1E8 JTAG> >0x1E8 JTAG> >0x1E8 JTAG> >0x1E8 JTAG> >0x1E8 JTAG> >0x1E8 JTAG> >0x1E8 JTAG> >0x218 JTAG> >0x218 JTAG> (0016ms, 1024ms total)
T17FC 001:523 JLINK_IsHalted() >0x170 JTAG>  returns FALSE (0001ms, 1025ms total)
T17FC 001:536 JLINK_IsHalted() >0x170 JTAG> >0x1598 JTAG>  returns TRUE (0011ms, 1035ms total)
T17FC 001:548 JLINK_ReadReg(R15)  returns 0x10000000 (0000ms, 1024ms total)
T17FC 001:548 JLINK_ClrBPEx(BPHandle = 0x0000000D)  returns 0x00 (0000ms, 1024ms total)
T17FC 001:548 JLINK_ReadReg(R0)  returns 0x00000000 (0000ms, 1024ms total)
T17FC 001:548 JLINK_WriteMem(0x10000204, 0x0400 Bytes, ...) -- Data:  60 F3 07 01 2A 48 41 65 40 69 20 F4 FF 01 4F F4 ... >0x30A0 JTAG>  returns 0x400 (0024ms, 1048ms total)
T17FC 001:572 JLINK_WriteReg(R0, 0x00002400)  returns 0x00 (0000ms, 1048ms total)
T17FC 001:572 JLINK_WriteReg(R1, 0x00000400)  returns 0x00 (0000ms, 1048ms total)
T17FC 001:572 JLINK_WriteReg(R2, 0x10000204)  returns 0x00 (0000ms, 1048ms total)
T17FC 001:572 JLINK_WriteReg(R3, 0x00000000)  returns 0x00 (0000ms, 1048ms total)
T17FC 001:572 JLINK_WriteReg(R4, 0x00000000)  returns 0x00 (0000ms, 1048ms total)
T17FC 001:572 JLINK_WriteReg(R5, 0x00000000)  returns 0x00 (0000ms, 1048ms total)
T17FC 001:572 JLINK_WriteReg(R6, 0x00000000)  returns 0x00 (0000ms, 1048ms total)
T17FC 001:572 JLINK_WriteReg(R7, 0x00000000)  returns 0x00 (0000ms, 1048ms total)
T17FC 001:572 JLINK_WriteReg(R8, 0x00000000)  returns 0x00 (0000ms, 1048ms total)
T17FC 001:572 JLINK_WriteReg(R9, 0x100001DC)  returns 0x00 (0000ms, 1048ms total)
T17FC 001:572 JLINK_WriteReg(R10, 0x00000000)  returns 0x00 (0000ms, 1048ms total)
T17FC 001:572 JLINK_WriteReg(R11, 0x00000000)  returns 0x00 (0000ms, 1048ms total)
T17FC 001:572 JLINK_WriteReg(R12, 0x00000000)  returns 0x00 (0000ms, 1048ms total)
T17FC 001:572 JLINK_WriteReg(R13, 0x10000800)  returns 0x00 (0000ms, 1048ms total)
T17FC 001:572 JLINK_WriteReg(R14, 0x10000001)  returns 0x00 (0000ms, 1048ms total)
T17FC 001:572 JLINK_WriteReg(R15, 0x10000156)  returns 0x00 (0000ms, 1048ms total)
T17FC 001:572 JLINK_WriteReg(XPSR, 0x01000000)  returns 0x00 (0000ms, 1048ms total)
T17FC 001:572 JLINK_WriteReg(MSP, 0x10000800)  returns 0x00 (0000ms, 1048ms total)
T17FC 001:572 JLINK_WriteReg(PSP, 0x10000800)  returns 0x00 (0000ms, 1048ms total)
T17FC 001:572 JLINK_WriteReg(CFBP, 0x00000000)  returns 0x00 (0000ms, 1048ms total)
T17FC 001:572 JLINK_SetBPEx(Addr = 0x10000000, Type = 0xFFFFFFF2)  returns 0x0000000E (0000ms, 1048ms total)
T17FC 001:572 JLINK_Go() >0x2C8 JTAG> >0x1E8 JTAG> >0x1E8 JTAG> >0x1E8 JTAG> >0x1E8 JTAG> >0x1E8 JTAG> >0x1E8 JTAG> >0x1E8 JTAG> >0x218 JTAG> >0x218 JTAG> (0016ms, 1064ms total)
T17FC 001:588 JLINK_IsHalted() >0x170 JTAG>  returns FALSE (0001ms, 1065ms total)
T17FC 001:606 JLINK_IsHalted() >0x170 JTAG> >0x1598 JTAG>  returns TRUE (0012ms, 1076ms total)
T17FC 001:618 JLINK_ReadReg(R15)  returns 0x10000000 (0000ms, 1064ms total)
T17FC 001:618 JLINK_ClrBPEx(BPHandle = 0x0000000E)  returns 0x00 (0001ms, 1065ms total)
T17FC 001:619 JLINK_ReadReg(R0)  returns 0x00000000 (0000ms, 1065ms total)
T17FC 001:620 JLINK_WriteMem(0x10000204, 0x0400 Bytes, ...) -- Data:  00 BF 4F F0 80 50 2C 49 88 63 00 15 88 65 00 BF ... >0x30A0 JTAG>  returns 0x400 (0023ms, 1088ms total)
T17FC 001:643 JLINK_WriteReg(R0, 0x00002800)  returns 0x00 (0000ms, 1088ms total)
T17FC 001:643 JLINK_WriteReg(R1, 0x00000400)  returns 0x00 (0000ms, 1088ms total)
T17FC 001:643 JLINK_WriteReg(R2, 0x10000204)  returns 0x00 (0000ms, 1088ms total)
T17FC 001:643 JLINK_WriteReg(R3, 0x00000000)  returns 0x00 (0000ms, 1088ms total)
T17FC 001:643 JLINK_WriteReg(R4, 0x00000000)  returns 0x00 (0000ms, 1088ms total)
T17FC 001:643 JLINK_WriteReg(R5, 0x00000000)  returns 0x00 (0000ms, 1088ms total)
T17FC 001:643 JLINK_WriteReg(R6, 0x00000000)  returns 0x00 (0000ms, 1088ms total)
T17FC 001:643 JLINK_WriteReg(R7, 0x00000000)  returns 0x00 (0000ms, 1088ms total)
T17FC 001:643 JLINK_WriteReg(R8, 0x00000000)  returns 0x00 (0000ms, 1088ms total)
T17FC 001:643 JLINK_WriteReg(R9, 0x100001DC)  returns 0x00 (0000ms, 1088ms total)
T17FC 001:643 JLINK_WriteReg(R10, 0x00000000)  returns 0x00 (0000ms, 1088ms total)
T17FC 001:643 JLINK_WriteReg(R11, 0x00000000)  returns 0x00 (0000ms, 1088ms total)
T17FC 001:643 JLINK_WriteReg(R12, 0x00000000)  returns 0x00 (0000ms, 1088ms total)
T17FC 001:643 JLINK_WriteReg(R13, 0x10000800)  returns 0x00 (0000ms, 1088ms total)
T17FC 001:643 JLINK_WriteReg(R14, 0x10000001)  returns 0x00 (0000ms, 1088ms total)
T17FC 001:643 JLINK_WriteReg(R15, 0x10000156)  returns 0x00 (0000ms, 1088ms total)
T17FC 001:643 JLINK_WriteReg(XPSR, 0x01000000)  returns 0x00 (0000ms, 1088ms total)
T17FC 001:643 JLINK_WriteReg(MSP, 0x10000800)  returns 0x00 (0000ms, 1088ms total)
T17FC 001:643 JLINK_WriteReg(PSP, 0x10000800)  returns 0x00 (0000ms, 1088ms total)
T17FC 001:643 JLINK_WriteReg(CFBP, 0x00000000)  returns 0x00 (0000ms, 1088ms total)
T17FC 001:643 JLINK_SetBPEx(Addr = 0x10000000, Type = 0xFFFFFFF2)  returns 0x0000000F (0000ms, 1088ms total)
T17FC 001:643 JLINK_Go() >0x2C8 JTAG> >0x1E8 JTAG> >0x1E8 JTAG> >0x1E8 JTAG> >0x1E8 JTAG> >0x1E8 JTAG> >0x1E8 JTAG> >0x1E8 JTAG> >0x218 JTAG> >0x218 JTAG> (0018ms, 1106ms total)
T17FC 001:661 JLINK_IsHalted() >0x170 JTAG>  returns FALSE (0001ms, 1107ms total)
T17FC 001:666 JLINK_IsHalted() >0x170 JTAG> >0x1598 JTAG>  returns TRUE (0012ms, 1118ms total)
T17FC 001:678 JLINK_ReadReg(R15)  returns 0x10000000 (0000ms, 1106ms total)
T17FC 001:678 JLINK_ClrBPEx(BPHandle = 0x0000000F)  returns 0x00 (0000ms, 1106ms total)
T17FC 001:678 JLINK_ReadReg(R0)  returns 0x00000000 (0000ms, 1106ms total)
T17FC 001:679 JLINK_WriteMem(0x10000204, 0x0400 Bytes, ...) -- Data:  2E 49 88 65 00 BF 05 98 03 90 48 15 C8 65 C1 04 ... >0x30A0 JTAG>  returns 0x400 (0024ms, 1130ms total)
T17FC 001:703 JLINK_WriteReg(R0, 0x00002C00)  returns 0x00 (0000ms, 1130ms total)
T17FC 001:703 JLINK_WriteReg(R1, 0x00000400)  returns 0x00 (0000ms, 1130ms total)
T17FC 001:703 JLINK_WriteReg(R2, 0x10000204)  returns 0x00 (0000ms, 1130ms total)
T17FC 001:703 JLINK_WriteReg(R3, 0x00000000)  returns 0x00 (0000ms, 1130ms total)
T17FC 001:703 JLINK_WriteReg(R4, 0x00000000)  returns 0x00 (0000ms, 1130ms total)
T17FC 001:703 JLINK_WriteReg(R5, 0x00000000)  returns 0x00 (0000ms, 1130ms total)
T17FC 001:703 JLINK_WriteReg(R6, 0x00000000)  returns 0x00 (0000ms, 1130ms total)
T17FC 001:703 JLINK_WriteReg(R7, 0x00000000)  returns 0x00 (0000ms, 1130ms total)
T17FC 001:703 JLINK_WriteReg(R8, 0x00000000)  returns 0x00 (0000ms, 1130ms total)
T17FC 001:703 JLINK_WriteReg(R9, 0x100001DC)  returns 0x00 (0000ms, 1130ms total)
T17FC 001:703 JLINK_WriteReg(R10, 0x00000000)  returns 0x00 (0000ms, 1130ms total)
T17FC 001:703 JLINK_WriteReg(R11, 0x00000000)  returns 0x00 (0000ms, 1130ms total)
T17FC 001:703 JLINK_WriteReg(R12, 0x00000000)  returns 0x00 (0000ms, 1130ms total)
T17FC 001:703 JLINK_WriteReg(R13, 0x10000800)  returns 0x00 (0000ms, 1130ms total)
T17FC 001:703 JLINK_WriteReg(R14, 0x10000001)  returns 0x00 (0000ms, 1130ms total)
T17FC 001:703 JLINK_WriteReg(R15, 0x10000156)  returns 0x00 (0000ms, 1130ms total)
T17FC 001:703 JLINK_WriteReg(XPSR, 0x01000000)  returns 0x00 (0000ms, 1130ms total)
T17FC 001:703 JLINK_WriteReg(MSP, 0x10000800)  returns 0x00 (0000ms, 1130ms total)
T17FC 001:703 JLINK_WriteReg(PSP, 0x10000800)  returns 0x00 (0000ms, 1130ms total)
T17FC 001:703 JLINK_WriteReg(CFBP, 0x00000000)  returns 0x00 (0000ms, 1130ms total)
T17FC 001:703 JLINK_SetBPEx(Addr = 0x10000000, Type = 0xFFFFFFF2)  returns 0x00000010 (0000ms, 1130ms total)
T17FC 001:703 JLINK_Go() >0x2C8 JTAG> >0x1E8 JTAG> >0x1E8 JTAG> >0x1E8 JTAG> >0x1E8 JTAG> >0x1E8 JTAG> >0x1E8 JTAG> >0x1E8 JTAG> >0x218 JTAG> >0x218 JTAG> (0017ms, 1147ms total)
T17FC 001:720 JLINK_IsHalted() >0x170 JTAG>  returns FALSE (0001ms, 1148ms total)
T17FC 001:735 JLINK_IsHalted() >0x170 JTAG> >0x1598 JTAG>  returns TRUE (0013ms, 1160ms total)
T17FC 001:748 JLINK_ReadReg(R15)  returns 0x10000000 (0000ms, 1147ms total)
T17FC 001:748 JLINK_ClrBPEx(BPHandle = 0x00000010)  returns 0x00 (0000ms, 1147ms total)
T17FC 001:748 JLINK_ReadReg(R0)  returns 0x00000000 (0000ms, 1147ms total)
